
T21CC 000:339 SEGGER J-Link V5.12e Log File (0000ms, 0273ms total)
T21CC 000:339 DLL Compiled: Apr 29 2016 15:03:58 (0000ms, 0273ms total)
T21CC 000:339 Logging started @ 2024-08-07 22:45 (0000ms, 0273ms total)
T21CC 000:339 JLINK_SetWarnOutHandler(...) (0001ms, 0274ms total)
T21CC 000:340 JLINK_OpenEx(...)
Firmware: J-Link ARM V8 compiled Nov 28 2014 13:44:46
Hardware: V8.00
S/N: 12345678
Feature(s): RDI,FlashDL,FlashBP,JFlash,GDBFull  returns O.K. (0274ms, 0548ms total)
T21CC 000:614 JLINK_SetErrorOutHandler(...) (0000ms, 0548ms total)
T21CC 000:614 JLINK_ExecCommand("ProjectFile = "E:\0\Board\_Template_\Project\JLinkSettings.ini"", ...)Device "STM32F103VC" selected.  returns 0x00 (0001ms, 0549ms total)
T21CC 000:615 JLINK_ExecCommand("Device = GD32F303CC", ...)Device "STM32F103VC" selected.  returns 0x00 (0001ms, 0550ms total)
T21CC 000:616 JLINK_ExecCommand("DisableConnectionTimeout", ...)  returns 0x01 (0000ms, 0550ms total)
T21CC 000:616 JLINK_GetHardwareVersion()  returns 0x13880 (0000ms, 0550ms total)
T21CC 000:616 JLINK_GetDLLVersion()  returns 51205 (0000ms, 0550ms total)
T21CC 000:616 JLINK_GetFirmwareString(...) (0000ms, 0550ms total)
T21CC 000:616 JLINK_GetDLLVersion()  returns 51205 (0000ms, 0550ms total)
T21CC 000:616 JLINK_GetCompileDateTime() (0000ms, 0550ms total)
T21CC 000:616 JLINK_GetFirmwareString(...) (0000ms, 0550ms total)
T21CC 000:616 JLINK_GetHardwareVersion()  returns 0x13880 (0000ms, 0550ms total)
T21CC 000:616 JLINK_TIF_Select(JLINKARM_TIF_SWD)  returns 0x00 (0002ms, 0552ms total)
T21CC 000:618 JLINK_SetSpeed(2000) (0000ms, 0552ms total)
T21CC 000:618 JLINK_GetId() >0x108 TIF>Found SWD-DP with ID 0x2BA01477 >0x0D TIF> >0x28 TIF> >0x0D TIF> >0x28 TIF> >0x0D TIF> >0x28 TIF> >0x0D TIF> >0x28 TIF> >0x0D TIF> >0x21 TIF> >0x0D TIF> >0x28 TIF> >0x0D TIF> >0x28 TIF> >0x0D TIF> >0x28 TIF> >0x0D TIF> >0x21 TIF> >0x0D TIF> >0x21 TIF> >0x0D TIF> >0x28 TIF> >0x0D TIF> >0x21 TIF> >0x0D TIF> >0x21 TIF> >0x0D TIF> >0x28 TIF> >0x0D TIF> >0x28 TIF> >0x0D TIF> >0x28 TIF> >0x0D TIF> >0x21 TIF> >0x0D TIF> >0x21 TIF> >0x0D TIF> >0x28 TIF> >0x0D TIF>
 >0x21 TIF> >0x0D TIF> >0x21 TIF> >0x0D TIF> >0x28 TIF> >0x0D TIF> >0x21 TIF> >0x0D TIF> >0x21 TIF> >0x0D TIF> >0x28 TIF> >0x0D TIF> >0x21 TIF> >0x0D TIF> >0x21 TIF> >0x108 TIF>Found SWD-DP with ID 0x2BA01477 >0x0D TIF> >0x28 TIF> >0x0D TIF> >0x28 TIF> >0x0D TIF> >0x28 TIF> >0x0D TIF> >0x28 TIF> >0x0D TIF> >0x21 TIF> >0x0D TIF> >0x28 TIF> >0x0D TIF> >0x28 TIF> >0x0D TIF> >0x21 TIF> >0x0D TIF> >0x21 TIF> >0x0D TIF> >0x21 TIF> >0x0D TIF> >0x28 TIF> >0x0D TIF> >0x28 TIF> >0x0D TIF> >0x28 TIF> >0x0D TIF>
 >0x21 TIF> >0x0D TIF> >0x21 TIF> >0x0D TIF> >0x28 TIF> >0x0D TIF> >0x21 TIF> >0x0D TIF> >0x21 TIF>Found Cortex-M4 r0p1, Little endian.Identified core does not match configuration. (Found: Cortex-M4, Configured: Cortex-M3) -- CPU_ReadMem(4 bytes @ 0xE000EDF0) -- CPU_WriteMem(4 bytes @ 0xE000EDF0) -- CPU_ReadMem(4 bytes @ 0xE0002000)FPUnit: 6 code (BP) slots and 2 literal slots -- CPU_ReadMem(4 bytes @ 0xE000EDFC) -- CPU_WriteMem(4 bytes @ 0xE000EDFC) -- CPU_ReadMem(4 bytes @ 0xE0001000)
 -- CPU_WriteMem(4 bytes @ 0xE0001000) -- CPU_ReadMem(4 bytes @ 0xE000ED88) -- CPU_WriteMem(4 bytes @ 0xE000ED88) -- CPU_ReadMem(4 bytes @ 0xE000ED88) -- CPU_WriteMem(4 bytes @ 0xE000ED88)CoreSight components:ROMTbl 0 @ E00FF000 -- CPU_ReadMem(16 bytes @ 0xE00FF000) -- CPU_ReadMem(16 bytes @ 0xE000EFF0) -- CPU_ReadMem(16 bytes @ 0xE000EFE0)ROMTbl 0 [0]: FFF0F000, CID: B105E00D, PID: 000BB00C SCS -- CPU_ReadMem(16 bytes @ 0xE0001FF0) -- CPU_ReadMem(16 bytes @ 0xE0001FE0)
ROMTbl 0 [1]: FFF02000, CID: B105E00D, PID: 003BB002 DWT -- CPU_ReadMem(16 bytes @ 0xE0002FF0) -- CPU_ReadMem(16 bytes @ 0xE0002FE0)ROMTbl 0 [2]: FFF03000, CID: B105E00D, PID: 002BB003 FPB -- CPU_ReadMem(16 bytes @ 0xE0000FF0) -- CPU_ReadMem(16 bytes @ 0xE0000FE0)ROMTbl 0 [3]: FFF01000, CID: B105E00D, PID: 003BB001 ITM -- CPU_ReadMem(16 bytes @ 0xE00FF010) -- CPU_ReadMem(16 bytes @ 0xE0040FF0) -- CPU_ReadMem(16 bytes @ 0xE0040FE0)ROMTbl 0 [4]: FFF41000, CID: B105900D, PID: 000BB9A1 TPIU
 -- CPU_ReadMem(16 bytes @ 0xE0041FF0) -- CPU_ReadMem(16 bytes @ 0xE0041FE0)ROMTbl 0 [5]: FFF42000, CID: 00000000, PID: 00000000 ??? >0x0D TIF> >0x21 TIF>  returns 0x2BA01477 (0068ms, 0620ms total)
T21CC 000:686 JLINK_GetDLLVersion()  returns 51205 (0000ms, 0620ms total)
T21CC 000:686 JLINK_CORE_GetFound()  returns 0xE0000FF (0000ms, 0620ms total)
T21CC 000:686 JLINK_GetDebugInfo(0x100) -- Value=0xE00FF000  returns 0x00 (0000ms, 0620ms total)
T21CC 000:686 JLINK_GetDebugInfo(0x100) -- Value=0xE00FF000  returns 0x00 (0000ms, 0620ms total)
T21CC 000:686 JLINK_GetDebugInfo(0x101) -- Value=0x00000000  returns 0x00 (0000ms, 0620ms total)
T21CC 000:686 JLINK_ReadMem (0xE0041FF0, 0x0010 Bytes, ...) -- CPU is running -- CPU_ReadMem(16 bytes @ 0xE0041FF0) - Data: 00 00 00 00 00 00 00 00 00 00 00 00 00 00 00 00  returns 0x00 (0001ms, 0621ms total)
T21CC 000:687 JLINK_GetDebugInfo(0x102) -- Value=0x00000000  returns 0x00 (0000ms, 0621ms total)
T21CC 000:687 JLINK_GetDebugInfo(0x103) -- Value=0xE0040000  returns 0x00 (0000ms, 0621ms total)
T21CC 000:687 JLINK_GetDebugInfo(0x104) -- Value=0xE0000000  returns 0x00 (0000ms, 0621ms total)
T21CC 000:687 JLINK_GetDebugInfo(0x105) -- Value=0xE0001000  returns 0x00 (0000ms, 0621ms total)
T21CC 000:687 JLINK_GetDebugInfo(0x106) -- Value=0xE0002000  returns 0x00 (0000ms, 0621ms total)
T21CC 000:687 JLINK_GetDebugInfo(0x107) -- Value=0xE000E000  returns 0x00 (0000ms, 0621ms total)
T21CC 000:687 JLINK_GetDebugInfo(0x10C) -- Value=0xE000EDF0  returns 0x00 (0000ms, 0621ms total)
T21CC 000:687 JLINK_ReadMemU32(0xE000EF40, 0x0001 Items, ...) -- CPU is running -- CPU_ReadMem(4 bytes @ 0xE000EF40) - Data: 21 00 11 10  returns 0x01 (0001ms, 0622ms total)
T21CC 000:688 JLINK_ReadMemU32(0xE000EF44, 0x0001 Items, ...) -- CPU is running -- CPU_ReadMem(4 bytes @ 0xE000EF44) - Data: 11 00 00 11  returns 0x01 (0001ms, 0623ms total)
T21CC 000:689 JLINK_ReadMemU32(0xE000ED00, 0x0001 Items, ...) -- CPU is running -- CPU_ReadMem(4 bytes @ 0xE000ED00) - Data: 41 C2 0F 41  returns 0x01 (0001ms, 0624ms total)
T21CC 000:690 JLINK_SetResetType(JLINKARM_RESET_TYPE_NORMAL)  returns JLINKARM_RESET_TYPE_NORMAL (0000ms, 0624ms total)
T21CC 000:690 JLINK_Reset() -- CPU is running -- CPU_WriteMem(4 bytes @ 0xE000EDF0) -- CPU is running -- CPU_WriteMem(4 bytes @ 0xE000EDFC) >0x35 TIF> -- CPU is running -- CPU_WriteMem(4 bytes @ 0xE000ED0C) -- CPU is running -- CPU_ReadMem(4 bytes @ 0xE000EDF0) -- CPU is running -- CPU_ReadMem(4 bytes @ 0xE000EDF0) -- CPU is running -- CPU_WriteMem(4 bytes @ 0xE000EDF0) -- CPU is running -- CPU_WriteMem(4 bytes @ 0xE000EDFC) -- CPU is running -- CPU_ReadMem(4 bytes @ 0xE000EDF0)
 -- CPU_WriteMem(4 bytes @ 0xE0002000) -- CPU_ReadMem(4 bytes @ 0xE000EDFC) -- CPU_ReadMem(4 bytes @ 0xE0001000) (0021ms, 0645ms total)
T21CC 000:711 JLINK_ReadReg(R15 (PC))  returns 0x08000150 (0000ms, 0645ms total)
T21CC 000:711 JLINK_ReadReg(XPSR)  returns 0x01000000 (0000ms, 0645ms total)
T21CC 000:711 JLINK_Halt()  returns 0x00 (0000ms, 0645ms total)
T21CC 000:711 JLINK_IsHalted()  returns TRUE (0000ms, 0645ms total)
T21CC 000:711 JLINK_ReadMemU32(0xE000EDF0, 0x0001 Items, ...) -- CPU_ReadMem(4 bytes @ 0xE000EDF0) - Data: 03 00 03 00  returns 0x01 (0001ms, 0646ms total)
T21CC 000:712 JLINK_WriteU32(0xE000EDF0, 0xA05F0003) -- CPU_WriteMem(4 bytes @ 0xE000EDF0)  returns 0x00 (0001ms, 0647ms total)
T21CC 000:713 JLINK_WriteU32(0xE000EDFC, 0x01000000) -- CPU_WriteMem(4 bytes @ 0xE000EDFC)  returns 0x00 (0001ms, 0648ms total)
T21CC 000:714 JLINK_GetHWStatus(...)  returns 0x00 (0000ms, 0648ms total)
T21CC 000:714 JLINK_GetNumBPUnits(Type = 0xFFFFFF00)  returns 0x06 (0000ms, 0648ms total)
T21CC 000:714 JLINK_GetNumBPUnits(Type = 0xF0)  returns 0x2000 (0000ms, 0648ms total)
T21CC 000:714 JLINK_GetNumWPUnits()  returns 0x04 (0000ms, 0648ms total)
T21CC 000:714 JLINK_GetSpeed()  returns 0x7D0 (0000ms, 0648ms total)
T21CC 000:714 JLINK_ReadMemU32(0xE000E004, 0x0001 Items, ...) -- CPU_ReadMem(4 bytes @ 0xE000E004) - Data: 02 00 00 00  returns 0x01 (0001ms, 0649ms total)
T21CC 000:715 JLINK_ReadMemU32(0xE000E004, 0x0001 Items, ...) -- CPU_ReadMem(4 bytes @ 0xE000E004) - Data: 02 00 00 00  returns 0x01 (0001ms, 0650ms total)
T21CC 000:716 JLINK_WriteMem(0xE0001000, 0x001C Bytes, ...) - Data: 01 00 00 00 00 00 00 00 00 00 00 00 00 00 00 00 ... -- CPU_WriteMem(28 bytes @ 0xE0001000)  returns 0x1C (0001ms, 0651ms total)
T21CC 000:717 JLINK_ReadMem (0xE0001000, 0x001C Bytes, ...) -- CPU_ReadMem(28 bytes @ 0xE0001000) - Data: 01 00 00 40 00 00 00 00 00 00 00 00 00 00 00 00 ...  returns 0x00 (0001ms, 0652ms total)
T21CC 000:718 JLINK_ReadReg(R15 (PC))  returns 0x08000150 (0000ms, 0652ms total)
T21CC 000:718 JLINK_ReadReg(XPSR)  returns 0x01000000 (0000ms, 0652ms total)
T21CC 000:724 JLINK_ReadMem (0xE0001004, 0x0004 Bytes, ...) -- CPU_ReadMem(4 bytes @ 0xE0001004) - Data: 00 00 00 00  returns 0x00 (0001ms, 0653ms total)
T21CC 000:864 JLINK_SetResetType(JLINKARM_RESET_TYPE_NORMAL)  returns JLINKARM_RESET_TYPE_NORMAL (0000ms, 0653ms total)
T21CC 000:864 JLINK_Reset() -- CPU_WriteMem(4 bytes @ 0xE000EDF0) -- CPU_WriteMem(4 bytes @ 0xE000EDFC) >0x35 TIF> -- CPU_WriteMem(4 bytes @ 0xE000ED0C) -- CPU_ReadMem(4 bytes @ 0xE000EDF0) -- CPU_ReadMem(4 bytes @ 0xE000EDF0) -- CPU_WriteMem(4 bytes @ 0xE000EDF0) -- CPU_WriteMem(4 bytes @ 0xE000EDFC) -- CPU is running -- CPU_ReadMem(4 bytes @ 0xE000EDF0) -- CPU_WriteMem(4 bytes @ 0xE0002000) -- CPU_ReadMem(4 bytes @ 0xE000EDFC) -- CPU_ReadMem(4 bytes @ 0xE0001000) (0022ms, 0675ms total)
T21CC 000:886 JLINK_ReadReg(R15 (PC))  returns 0x08000150 (0000ms, 0675ms total)
T21CC 000:886 JLINK_ReadReg(XPSR)  returns 0x01000000 (0000ms, 0675ms total)
T17DC 008:480 JLINK_SetBPEx(Addr = 0x0800AF40, Type = 0xFFFFFFF2)  returns 0x00000001 (0000ms, 0675ms total)
T17DC 008:480 JLINK_Go() -- CPU_WriteMem(4 bytes @ 0xE0002000) -- CPU_ReadMem(4 bytes @ 0xE0001000) -- CPU_WriteMem(4 bytes @ 0xE0002008) -- CPU_WriteMem(4 bytes @ 0xE000200C) -- CPU_WriteMem(4 bytes @ 0xE0002010) -- CPU_WriteMem(4 bytes @ 0xE0002014) -- CPU_WriteMem(4 bytes @ 0xE0002018) -- CPU_WriteMem(4 bytes @ 0xE000201C) -- CPU_WriteMem(4 bytes @ 0xE0001004) (0006ms, 0681ms total)
T17DC 008:588 JLINK_IsHalted()  returns ERROR (0000ms, 0681ms total)
T17DC 008:588 JLINK_Halt()CPU could not be halted  returns 0x01 (0005ms, 0686ms total)
T17DC 008:593 JLINK_IsHalted()  returns ERROR (0001ms, 0687ms total)
T17DC 008:594 JLINK_IsHalted()  returns ERROR (0000ms, 0686ms total)
T17DC 008:595 JLINK_IsHalted()  returns ERROR (0001ms, 0687ms total)
T17DC 008:596 JLINK_ReadReg(R15 (PC)) -- CPU is running
  ***** Error: Can not read register 15 (R15) while CPU is running  returns 0x00000000 (0001ms, 0687ms total)
T17DC 008:597 JLINK_ReadReg(XPSR) -- CPU is running
  ***** Error: Can not read register 16 (XPSR) while CPU is running  returns 0x00000000 (0001ms, 0688ms total)
T17DC 008:598 JLINK_ClrBPEx(BPHandle = 0x00000001) -- CPU is running -- CPU is running -- CPU_WriteMem(4 bytes @ 0xE0002008) -- CPU is running -- CPU_WriteMem(4 bytes @ 0xE000200C) -- CPU is running -- CPU_WriteMem(4 bytes @ 0xE0002010) -- CPU is running -- CPU_WriteMem(4 bytes @ 0xE0002014) -- CPU is running -- CPU_WriteMem(4 bytes @ 0xE0002018) -- CPU is running -- CPU_WriteMem(4 bytes @ 0xE000201C)  returns 0x00 (0004ms, 0692ms total)
T17DC 008:603 JLINK_ReadMemU32(0xE000ED30, 0x0001 Items, ...) -- CPU is running -- CPU_ReadMem(4 bytes @ 0xE000ED30)  returns 0xFFFFFFFF (0000ms, 0692ms total)
T17DC 008:603 JLINK_ReadMemU32(0xE0001028, 0x0001 Items, ...) -- CPU is running -- CPU_ReadMem(4 bytes @ 0xE0001028)  returns 0xFFFFFFFF (0001ms, 0693ms total)
T17DC 008:604 JLINK_ReadMemU32(0xE0001038, 0x0001 Items, ...) -- CPU is running -- CPU_ReadMem(4 bytes @ 0xE0001038)  returns 0xFFFFFFFF (0001ms, 0694ms total)
T17DC 008:605 JLINK_ReadMemU32(0xE0001048, 0x0001 Items, ...) -- CPU is running -- CPU_ReadMem(4 bytes @ 0xE0001048)  returns 0xFFFFFFFF (0000ms, 0694ms total)
T17DC 008:605 JLINK_ReadMemU32(0xE0001058, 0x0001 Items, ...) -- CPU is running -- CPU_ReadMem(4 bytes @ 0xE0001058)  returns 0xFFFFFFFF (0001ms, 0695ms total)
T17DC 008:606 JLINK_ReadReg(R0) -- CPU is running
  ***** Error: Can not read register 0 (R0) while CPU is running  returns 0x00000000 (0001ms, 0696ms total)
T17DC 008:608 JLINK_ReadReg(R1) -- CPU is running
  ***** Error: Can not read register 1 (R1) while CPU is running  returns 0x00000000 (0001ms, 0697ms total)
T17DC 008:609 JLINK_ReadReg(R2) -- CPU is running
  ***** Error: Can not read register 2 (R2) while CPU is running  returns 0x00000000 (0001ms, 0698ms total)
T17DC 008:610 JLINK_ReadReg(R3) -- CPU is running
  ***** Error: Can not read register 3 (R3) while CPU is running  returns 0x00000000 (0001ms, 0699ms total)
T17DC 008:611 JLINK_ReadReg(R4) -- CPU is running
  ***** Error: Can not read register 4 (R4) while CPU is running  returns 0x00000000 (0001ms, 0700ms total)
T17DC 008:612 JLINK_ReadReg(R5) -- CPU is running
  ***** Error: Can not read register 5 (R5) while CPU is running  returns 0x00000000 (0001ms, 0701ms total)
T17DC 008:613 JLINK_ReadReg(R6) -- CPU is running
  ***** Error: Can not read register 6 (R6) while CPU is running  returns 0x00000000 (0001ms, 0702ms total)
T17DC 008:614 JLINK_ReadReg(R7) -- CPU is running
  ***** Error: Can not read register 7 (R7) while CPU is running  returns 0x00000000 (0001ms, 0703ms total)
T17DC 008:615 JLINK_ReadReg(R8) -- CPU is running
  ***** Error: Can not read register 8 (R8) while CPU is running  returns 0x00000000 (0001ms, 0704ms total)
T17DC 008:616 JLINK_ReadReg(R9) -- CPU is running
  ***** Error: Can not read register 9 (R9) while CPU is running  returns 0x00000000 (0001ms, 0705ms total)
T17DC 008:617 JLINK_ReadReg(R10) -- CPU is running
  ***** Error: Can not read register 10 (R10) while CPU is running  returns 0x00000000 (0001ms, 0706ms total)
T17DC 008:618 JLINK_ReadReg(R11) -- CPU is running
  ***** Error: Can not read register 11 (R11) while CPU is running  returns 0x00000000 (0001ms, 0707ms total)
T17DC 008:619 JLINK_ReadReg(R12) -- CPU is running
  ***** Error: Can not read register 12 (R12) while CPU is running  returns 0x00000000 (0001ms, 0708ms total)
T17DC 008:620 JLINK_ReadReg(R13 (SP)) -- CPU is running
  ***** Error: Can not read register 13 (R13) while CPU is running  returns 0x00000000 (0001ms, 0709ms total)
T17DC 008:621 JLINK_ReadReg(R14) -- CPU is running
  ***** Error: Can not read register 14 (R14) while CPU is running  returns 0x00000000 (0001ms, 0710ms total)
T17DC 008:626 JLINK_ReadReg(R15 (PC)) -- CPU is running
  ***** Error: Can not read register 15 (R15) while CPU is running  returns 0x00000000 (0001ms, 0711ms total)
T17DC 008:627 JLINK_ReadReg(XPSR) -- CPU is running
  ***** Error: Can not read register 16 (XPSR) while CPU is running  returns 0x00000000 (0001ms, 0712ms total)
T17DC 008:628 JLINK_ReadReg(MSP) -- CPU is running
  ***** Error: Can not read register 17 (MSP) while CPU is running  returns 0x00000000 (0001ms, 0713ms total)
T17DC 008:629 JLINK_ReadReg(PSP) -- CPU is running
  ***** Error: Can not read register 18 (PSP) while CPU is running  returns 0x00000000 (0001ms, 0714ms total)
T17DC 008:630 JLINK_ReadReg(CFBP) -- CPU is running
  ***** Error: Can not read register 20 (CFBP) while CPU is running  returns 0x00000000 (0001ms, 0715ms total)
T17DC 008:631 JLINK_ReadReg(FPSCR) -- CPU is running
  ***** Error: Can not read register 32 (FPSCR) while CPU is running  returns 0x00000000 (0001ms, 0716ms total)
T17DC 008:632 JLINK_ReadReg(FPS0) -- CPU is running
  ***** Error: Can not read register 33 (FPS0) while CPU is running  returns 0x00000000 (0000ms, 0716ms total)
T17DC 008:632 JLINK_ReadReg(FPS1) -- CPU is running
  ***** Error: Can not read register 34 (FPS1) while CPU is running  returns 0x00000000 (0001ms, 0717ms total)
T17DC 008:633 JLINK_ReadReg(FPS2) -- CPU is running
  ***** Error: Can not read register 35 (FPS2) while CPU is running  returns 0x00000000 (0001ms, 0718ms total)
T17DC 008:634 JLINK_ReadReg(FPS3) -- CPU is running
  ***** Error: Can not read register 36 (FPS3) while CPU is running  returns 0x00000000 (0001ms, 0719ms total)
T17DC 008:635 JLINK_ReadReg(FPS4) -- CPU is running
  ***** Error: Can not read register 37 (FPS4) while CPU is running  returns 0x00000000 (0001ms, 0720ms total)
T17DC 008:636 JLINK_ReadReg(FPS5) -- CPU is running
  ***** Error: Can not read register 38 (FPS5) while CPU is running  returns 0x00000000 (0001ms, 0721ms total)
T17DC 008:637 JLINK_ReadReg(FPS6) -- CPU is running
  ***** Error: Can not read register 39 (FPS6) while CPU is running  returns 0x00000000 (0001ms, 0722ms total)
T17DC 008:641 JLINK_ReadReg(FPS7) -- CPU is running
  ***** Error: Can not read register 40 (FPS7) while CPU is running  returns 0x00000000 (0001ms, 0723ms total)
T17DC 008:642 JLINK_ReadReg(FPS8) -- CPU is running
  ***** Error: Can not read register 41 (FPS8) while CPU is running  returns 0x00000000 (0000ms, 0723ms total)
T17DC 008:642 JLINK_ReadReg(FPS9) -- CPU is running
  ***** Error: Can not read register 42 (FPS9) while CPU is running  returns 0x00000000 (0000ms, 0723ms total)
T17DC 008:642 JLINK_ReadReg(FPS10) -- CPU is running
  ***** Error: Can not read register 43 (FPS10) while CPU is running  returns 0x00000000 (0002ms, 0725ms total)
T17DC 008:644 JLINK_ReadReg(FPS11) -- CPU is running
  ***** Error: Can not read register 44 (FPS11) while CPU is running  returns 0x00000000 (0001ms, 0726ms total)
T17DC 008:645 JLINK_ReadReg(FPS12) -- CPU is running
  ***** Error: Can not read register 45 (FPS12) while CPU is running  returns 0x00000000 (0000ms, 0726ms total)
T17DC 008:645 JLINK_ReadReg(FPS13) -- CPU is running
  ***** Error: Can not read register 46 (FPS13) while CPU is running  returns 0x00000000 (0001ms, 0727ms total)
T17DC 008:646 JLINK_ReadReg(FPS14) -- CPU is running
  ***** Error: Can not read register 47 (FPS14) while CPU is running  returns 0x00000000 (0001ms, 0728ms total)
T17DC 008:647 JLINK_ReadReg(FPS15) -- CPU is running
  ***** Error: Can not read register 48 (FPS15) while CPU is running  returns 0x00000000 (0001ms, 0729ms total)
T17DC 008:648 JLINK_ReadReg(FPS16) -- CPU is running
  ***** Error: Can not read register 49 (FPS16) while CPU is running  returns 0x00000000 (0001ms, 0730ms total)
T17DC 008:649 JLINK_ReadReg(FPS17) -- CPU is running
  ***** Error: Can not read register 50 (FPS17) while CPU is running  returns 0x00000000 (0001ms, 0731ms total)
T17DC 008:650 JLINK_ReadReg(FPS18) -- CPU is running
  ***** Error: Can not read register 51 (FPS18) while CPU is running  returns 0x00000000 (0000ms, 0731ms total)
T17DC 008:650 JLINK_ReadReg(FPS19) -- CPU is running
  ***** Error: Can not read register 52 (FPS19) while CPU is running  returns 0x00000000 (0001ms, 0732ms total)
T17DC 008:651 JLINK_ReadReg(FPS20) -- CPU is running
  ***** Error: Can not read register 53 (FPS20) while CPU is running  returns 0x00000000 (0000ms, 0732ms total)
T17DC 008:652 JLINK_ReadReg(FPS21) -- CPU is running
  ***** Error: Can not read register 54 (FPS21) while CPU is running  returns 0x00000000 (0000ms, 0732ms total)
T17DC 008:658 JLINK_ReadReg(FPS22) -- CPU is running
  ***** Error: Can not read register 55 (FPS22) while CPU is running  returns 0x00000000 (0002ms, 0734ms total)
T17DC 008:660 JLINK_ReadReg(FPS23) -- CPU is running
  ***** Error: Can not read register 56 (FPS23) while CPU is running  returns 0x00000000 (0000ms, 0734ms total)
T17DC 008:660 JLINK_ReadReg(FPS24) -- CPU is running
  ***** Error: Can not read register 57 (FPS24) while CPU is running  returns 0x00000000 (0001ms, 0735ms total)
T17DC 008:661 JLINK_ReadReg(FPS25) -- CPU is running
  ***** Error: Can not read register 58 (FPS25) while CPU is running  returns 0x00000000 (0001ms, 0736ms total)
T17DC 008:662 JLINK_ReadReg(FPS26) -- CPU is running
  ***** Error: Can not read register 59 (FPS26) while CPU is running  returns 0x00000000 (0000ms, 0736ms total)
T17DC 008:662 JLINK_ReadReg(FPS27) -- CPU is running
  ***** Error: Can not read register 60 (FPS27) while CPU is running  returns 0x00000000 (0001ms, 0737ms total)
T17DC 008:663 JLINK_ReadReg(FPS28) -- CPU is running
  ***** Error: Can not read register 61 (FPS28) while CPU is running  returns 0x00000000 (0001ms, 0738ms total)
T17DC 008:664 JLINK_ReadReg(FPS29) -- CPU is running
  ***** Error: Can not read register 62 (FPS29) while CPU is running  returns 0x00000000 (0001ms, 0739ms total)
T17DC 008:665 JLINK_ReadReg(FPS30) -- CPU is running
  ***** Error: Can not read register 63 (FPS30) while CPU is running  returns 0x00000000 (0001ms, 0740ms total)
T17DC 008:666 JLINK_ReadReg(FPS31) -- CPU is running
  ***** Error: Can not read register 64 (FPS31) while CPU is running  returns 0x00000000 (0000ms, 0740ms total)
T21CC 018:190 JLINK_SetResetType(JLINKARM_RESET_TYPE_NORMAL)  returns JLINKARM_RESET_TYPE_NORMAL (0000ms, 0740ms total)
T21CC 018:190 JLINK_Reset() -- CPU is running -- CPU_WriteMem(4 bytes @ 0xE000EDF0) -- CPU is running -- CPU_WriteMem(4 bytes @ 0xE000EDFC) >0x35 TIF> -- CPU is running -- CPU_WriteMem(4 bytes @ 0xE000ED0C) -- CPU is running -- CPU_ReadMem(4 bytes @ 0xE000EDF0)SYSRESETREQ has confused core. Trying to reconnect and use VECTRESET. >0x108 TIF>Found SWD-DP with ID 0x2BA01477 >0x0D TIF> >0x28 TIF> >0x0D TIF> >0x28 TIF> >0x0D TIF> >0x28 TIF> >0x0D TIF> >0x28 TIF> >0x0D TIF> >0x21 TIF> >0x0D TIF> >0x28 TIF>
 >0x0D TIF> >0x28 TIF> >0x0D TIF> >0x21 TIF> >0x0D TIF> >0x21 TIF> >0x0D TIF> >0x21 TIF> >0x0D TIF> >0x28 TIF> >0x0D TIF> >0x28 TIF> >0x0D TIF> >0x28 TIF> >0x0D TIF> >0x21 TIF> >0x0D TIF> >0x21 TIF> >0x0D TIF> >0x28 TIF> >0x0D TIF> >0x21 TIF> >0x0D TIF> >0x21 TIF>Found Cortex-M4 r0p1, Little endian. -- CPU is running -- CPU_WriteMem(4 bytes @ 0xE000EDF0) -- CPU is running -- CPU_WriteMem(4 bytes @ 0xE000EDFC) >0x35 TIF> -- CPU is running -- CPU_WriteMem(4 bytes @ 0xE000ED0C) -- CPU is running
 -- CPU_ReadMem(4 bytes @ 0xE000EDF0) -- CPU is running -- CPU_ReadMem(4 bytes @ 0xE000EDF0) -- CPU is running -- CPU_WriteMem(4 bytes @ 0xE000EDF0) -- CPU is running -- CPU_WriteMem(4 bytes @ 0xE000EDFC) -- CPU is running -- CPU_ReadMem(4 bytes @ 0xE000EDF0) -- CPU_WriteMem(4 bytes @ 0xE0002000) -- CPU_ReadMem(4 bytes @ 0xE000EDFC) -- CPU_ReadMem(4 bytes @ 0xE0001000) -- CPU_WriteMem(4 bytes @ 0xE0001000) (0047ms, 0787ms total)
T21CC 018:237 JLINK_ReadReg(R15 (PC))  returns 0x08000150 (0000ms, 0787ms total)
T21CC 018:237 JLINK_ReadReg(XPSR)  returns 0x01000000 (0000ms, 0787ms total)
T17DC 019:168 JLINK_SetBPEx(Addr = 0x0800AEE8, Type = 0xFFFFFFF2)  returns 0x00000002 (0000ms, 0787ms total)
T17DC 019:168 JLINK_Go() -- CPU_WriteMem(4 bytes @ 0xE0002000) -- CPU_ReadMem(4 bytes @ 0xE0001000) -- CPU_WriteMem(4 bytes @ 0xE0002008) -- CPU_WriteMem(4 bytes @ 0xE000200C) -- CPU_WriteMem(4 bytes @ 0xE0002010) -- CPU_WriteMem(4 bytes @ 0xE0002014) -- CPU_WriteMem(4 bytes @ 0xE0002018) -- CPU_WriteMem(4 bytes @ 0xE000201C) -- CPU_WriteMem(4 bytes @ 0xE0001004) (0006ms, 0793ms total)
T17DC 019:275 JLINK_IsHalted()  returns FALSE (0001ms, 0794ms total)
T17DC 019:376 JLINK_IsHalted()  returns FALSE (0001ms, 0794ms total)
T17DC 019:477 JLINK_IsHalted()  returns FALSE (0001ms, 0794ms total)
T17DC 019:579 JLINK_IsHalted()  returns FALSE (0001ms, 0794ms total)
T17DC 019:681 JLINK_ReadMemU32(0xE0001004, 0x0001 Items, ...) -- CPU is running -- CPU_ReadMem(4 bytes @ 0xE0001004) - Data: 5A 6E 9C 03  returns 0x01 (0001ms, 0794ms total)
T17DC 019:682 JLINK_IsHalted()  returns FALSE (0001ms, 0795ms total)
T17DC 019:784 JLINK_IsHalted()  returns FALSE (0000ms, 0794ms total)
T17DC 019:885 JLINK_IsHalted()  returns FALSE (0001ms, 0795ms total)
T17DC 019:987 JLINK_IsHalted()  returns FALSE (0000ms, 0794ms total)
T17DC 020:088 JLINK_IsHalted()  returns FALSE (0001ms, 0795ms total)
T17DC 020:189 JLINK_IsHalted()  returns TRUE (0004ms, 0798ms total)
T17DC 020:193 JLINK_Halt()  returns 0x00 (0000ms, 0794ms total)
T17DC 020:193 JLINK_IsHalted()  returns TRUE (0000ms, 0794ms total)
T17DC 020:193 JLINK_IsHalted()  returns TRUE (0000ms, 0794ms total)
T17DC 020:193 JLINK_IsHalted()  returns TRUE (0000ms, 0794ms total)
T17DC 020:193 JLINK_ReadReg(R15 (PC))  returns 0x0800AEE8 (0000ms, 0794ms total)
T17DC 020:193 JLINK_ReadReg(XPSR)  returns 0x41000000 (0000ms, 0794ms total)
T17DC 020:193 JLINK_ClrBPEx(BPHandle = 0x00000002)  returns 0x00 (0000ms, 0794ms total)
T17DC 020:193 JLINK_ReadMemU32(0xE000ED30, 0x0001 Items, ...) -- CPU_ReadMem(4 bytes @ 0xE000ED30) - Data: 03 00 00 00  returns 0x01 (0002ms, 0796ms total)
T17DC 020:195 JLINK_ReadMemU32(0xE0001028, 0x0001 Items, ...) -- CPU_ReadMem(4 bytes @ 0xE0001028) - Data: 00 00 00 00  returns 0x01 (0001ms, 0797ms total)
T17DC 020:196 JLINK_ReadMemU32(0xE0001038, 0x0001 Items, ...) -- CPU_ReadMem(4 bytes @ 0xE0001038) - Data: 00 02 00 00  returns 0x01 (0001ms, 0798ms total)
T17DC 020:197 JLINK_ReadMemU32(0xE0001048, 0x0001 Items, ...) -- CPU_ReadMem(4 bytes @ 0xE0001048) - Data: 00 00 00 00  returns 0x01 (0001ms, 0799ms total)
T17DC 020:198 JLINK_ReadMemU32(0xE0001058, 0x0001 Items, ...) -- CPU_ReadMem(4 bytes @ 0xE0001058) - Data: 00 00 00 00  returns 0x01 (0001ms, 0800ms total)
T17DC 020:199 JLINK_ReadReg(R0)  returns 0x001740C8 (0000ms, 0800ms total)
T17DC 020:199 JLINK_ReadReg(R1)  returns 0x00000000 (0000ms, 0800ms total)
T17DC 020:199 JLINK_ReadReg(R2)  returns 0x001740C8 (0000ms, 0800ms total)
T17DC 020:199 JLINK_ReadReg(R3)  returns 0x00000000 (0000ms, 0800ms total)
T17DC 020:199 JLINK_ReadReg(R4)  returns 0x001740C8 (0000ms, 0800ms total)
T17DC 020:199 JLINK_ReadReg(R5)  returns 0x20000B9C (0000ms, 0800ms total)
T17DC 020:199 JLINK_ReadReg(R6)  returns 0x00000000 (0000ms, 0800ms total)
T17DC 020:199 JLINK_ReadReg(R7)  returns 0x0000030D (0000ms, 0800ms total)
T17DC 020:199 JLINK_ReadReg(R8)  returns 0x20000BD0 (0000ms, 0800ms total)
T17DC 020:199 JLINK_ReadReg(R9)  returns 0xB5F790BC (0000ms, 0800ms total)
T17DC 020:199 JLINK_ReadReg(R10)  returns 0x4FCA6B26 (0000ms, 0800ms total)
T17DC 020:199 JLINK_ReadReg(R11)  returns 0xA0931EDE (0000ms, 0800ms total)
T17DC 020:199 JLINK_ReadReg(R12)  returns 0x080043C3 (0000ms, 0800ms total)
T17DC 020:199 JLINK_ReadReg(R13 (SP))  returns 0x20004600 (0000ms, 0800ms total)
T17DC 020:199 JLINK_ReadReg(R14)  returns 0x08006A53 (0000ms, 0800ms total)
T17DC 020:199 JLINK_ReadReg(R15 (PC))  returns 0x0800AEE8 (0000ms, 0800ms total)
T17DC 020:199 JLINK_ReadReg(XPSR)  returns 0x41000000 (0000ms, 0800ms total)
T17DC 020:199 JLINK_ReadReg(MSP)  returns 0x20004600 (0000ms, 0800ms total)
T17DC 020:199 JLINK_ReadReg(PSP)  returns 0x166A3C64 (0000ms, 0800ms total)
T17DC 020:199 JLINK_ReadReg(CFBP)  returns 0x00000000 (0000ms, 0800ms total)
T17DC 020:199 JLINK_ReadReg(FPSCR)  returns 0x00000000 (0006ms, 0806ms total)
T17DC 020:205 JLINK_ReadReg(FPS0)  returns 0x441DBE18 (0000ms, 0806ms total)
T17DC 020:205 JLINK_ReadReg(FPS1)  returns 0xB576103B (0000ms, 0806ms total)
T17DC 020:205 JLINK_ReadReg(FPS2)  returns 0x33336E19 (0000ms, 0806ms total)
T17DC 020:205 JLINK_ReadReg(FPS3)  returns 0x9F8DA638 (0000ms, 0806ms total)
T17DC 020:205 JLINK_ReadReg(FPS4)  returns 0x7E3B74EF (0000ms, 0806ms total)
T17DC 020:205 JLINK_ReadReg(FPS5)  returns 0xC9B3B8BD (0000ms, 0806ms total)
T17DC 020:205 JLINK_ReadReg(FPS6)  returns 0x860516FD (0000ms, 0806ms total)
T17DC 020:205 JLINK_ReadReg(FPS7)  returns 0xB4FF6D32 (0000ms, 0806ms total)
T17DC 020:205 JLINK_ReadReg(FPS8)  returns 0xCED26F8E (0000ms, 0806ms total)
T17DC 020:205 JLINK_ReadReg(FPS9)  returns 0xEC9D9CFD (0000ms, 0806ms total)
T17DC 020:205 JLINK_ReadReg(FPS10)  returns 0x8FDE17DE (0000ms, 0806ms total)
T17DC 020:205 JLINK_ReadReg(FPS11)  returns 0xD44E74FD (0000ms, 0806ms total)
T17DC 020:205 JLINK_ReadReg(FPS12)  returns 0x0AF9D4DF (0000ms, 0806ms total)
T17DC 020:205 JLINK_ReadReg(FPS13)  returns 0xBD2582A4 (0000ms, 0806ms total)
T17DC 020:205 JLINK_ReadReg(FPS14)  returns 0xDB579EE2 (0000ms, 0806ms total)
T17DC 020:205 JLINK_ReadReg(FPS15)  returns 0x71633524 (0000ms, 0806ms total)
T17DC 020:205 JLINK_ReadReg(FPS16)  returns 0xCE1A88D6 (0000ms, 0806ms total)
T17DC 020:205 JLINK_ReadReg(FPS17)  returns 0x48FBC82F (0001ms, 0807ms total)
T17DC 020:206 JLINK_ReadReg(FPS18)  returns 0x2F8F13CE (0000ms, 0807ms total)
T17DC 020:206 JLINK_ReadReg(FPS19)  returns 0xAA2B3A70 (0000ms, 0807ms total)
T17DC 020:206 JLINK_ReadReg(FPS20)  returns 0x6D30F358 (0000ms, 0807ms total)
T17DC 020:206 JLINK_ReadReg(FPS21)  returns 0xCA9BB744 (0000ms, 0807ms total)
T17DC 020:206 JLINK_ReadReg(FPS22)  returns 0x09BF51FB (0000ms, 0807ms total)
T17DC 020:206 JLINK_ReadReg(FPS23)  returns 0x50D96899 (0000ms, 0807ms total)
T17DC 020:206 JLINK_ReadReg(FPS24)  returns 0x0FE63EDB (0000ms, 0807ms total)
T17DC 020:206 JLINK_ReadReg(FPS25)  returns 0x7668A672 (0000ms, 0807ms total)
T17DC 020:206 JLINK_ReadReg(FPS26)  returns 0x3FCDC75C (0000ms, 0807ms total)
T17DC 020:206 JLINK_ReadReg(FPS27)  returns 0x739936E7 (0000ms, 0807ms total)
T17DC 020:206 JLINK_ReadReg(FPS28)  returns 0xC0082AC7 (0000ms, 0807ms total)
T17DC 020:206 JLINK_ReadReg(FPS29)  returns 0xE6BCED00 (0000ms, 0807ms total)
T17DC 020:206 JLINK_ReadReg(FPS30)  returns 0x78381E09 (0000ms, 0807ms total)
T17DC 020:206 JLINK_ReadReg(FPS31)  returns 0x0FF68F24 (0000ms, 0807ms total)
T21CC 020:206 JLINK_ReadMem (0x20004600, 0x0020 Bytes, ...) -- CPU_ReadMem(64 bytes @ 0x20004600) -- Updating C cache (64 bytes @ 0x20004600) -- Read from C cache (32 bytes @ 0x20004600) - Data: 00 00 00 00 00 00 00 00 00 00 00 00 00 00 00 00 ...  returns 0x00 (0002ms, 0809ms total)
T17DC 040:520 JLINK_ReadMem (0x0800AEE8, 0x003C Bytes, ...) -- CPU_ReadMem(128 bytes @ 0x0800AEC0) -- Updating C cache (128 bytes @ 0x0800AEC0) -- Read from C cache (60 bytes @ 0x0800AEE8) - Data: 00 21 28 46 F9 F7 96 FE 4F F4 80 71 68 46 F5 F7 ...  returns 0x00 (0003ms, 0812ms total)
T17DC 040:523 JLINK_Step() -- Read from C cache (2 bytes @ 0x0800AEE8) -- CPU_ReadMem(4 bytes @ 0xE000ED18) -- CPU_WriteMem(4 bytes @ 0xE000ED18) -- CPU_ReadMem(4 bytes @ 0xE000ED18) -- CPU_WriteMem(4 bytes @ 0xE000ED18) -- CPU_ReadMem(4 bytes @ 0xE0001004) -- Simulated  returns 0x00 (0004ms, 0816ms total)
T17DC 040:527 JLINK_ReadReg(R15 (PC))  returns 0x0800AEEA (0000ms, 0816ms total)
T17DC 040:527 JLINK_ReadReg(XPSR)  returns 0x41000000 (0000ms, 0816ms total)
T17DC 040:527 JLINK_Step() -- Read from C cache (2 bytes @ 0x0800AEEA) -- Simulated  returns 0x00 (0000ms, 0816ms total)
T17DC 040:527 JLINK_ReadReg(R15 (PC))  returns 0x0800AEEC (0000ms, 0816ms total)
T17DC 040:527 JLINK_ReadReg(XPSR)  returns 0x41000000 (0000ms, 0816ms total)
T17DC 040:527 JLINK_SetBPEx(Addr = 0x0800AEF0, Type = 0xFFFFFFF2)  returns 0x00000003 (0000ms, 0816ms total)
T17DC 040:527 JLINK_SetBPEx(Addr = 0x0800AEE8, Type = 0xFFFFFFF2)  returns 0x00000004 (0000ms, 0816ms total)
T17DC 040:527 JLINK_Go() -- CPU_WriteMem(4 bytes @ 0xE0002000) -- CPU_WriteMem(4 bytes @ 0xE0002000) -- CPU_ReadMem(4 bytes @ 0xE0001000) -- CPU_WriteMem(4 bytes @ 0xE0002008) -- CPU_WriteMem(4 bytes @ 0xE000200C) -- CPU_WriteMem(4 bytes @ 0xE0001004) (0007ms, 0823ms total)
T17DC 040:635 JLINK_IsHalted()  returns TRUE (0005ms, 0828ms total)
T17DC 040:640 JLINK_Halt()  returns 0x00 (0000ms, 0823ms total)
T17DC 040:640 JLINK_IsHalted()  returns TRUE (0000ms, 0823ms total)
T17DC 040:640 JLINK_IsHalted()  returns TRUE (0000ms, 0823ms total)
T17DC 040:640 JLINK_IsHalted()  returns TRUE (0000ms, 0823ms total)
T17DC 040:640 JLINK_ReadReg(R15 (PC))  returns 0x0800AEF0 (0000ms, 0823ms total)
T17DC 040:640 JLINK_ReadReg(XPSR)  returns 0x61000000 (0000ms, 0823ms total)
T17DC 040:640 JLINK_ClrBPEx(BPHandle = 0x00000003)  returns 0x00 (0000ms, 0823ms total)
T17DC 040:640 JLINK_ClrBPEx(BPHandle = 0x00000004)  returns 0x00 (0000ms, 0823ms total)
T17DC 040:640 JLINK_ReadMemU32(0xE000ED30, 0x0001 Items, ...) -- CPU_ReadMem(4 bytes @ 0xE000ED30) - Data: 03 00 00 00  returns 0x01 (0001ms, 0824ms total)
T17DC 040:641 JLINK_ReadMemU32(0xE0001028, 0x0001 Items, ...) -- CPU_ReadMem(4 bytes @ 0xE0001028) - Data: 00 00 00 00  returns 0x01 (0000ms, 0824ms total)
T17DC 040:641 JLINK_ReadMemU32(0xE0001038, 0x0001 Items, ...) -- CPU_ReadMem(4 bytes @ 0xE0001038) - Data: 00 02 00 00  returns 0x01 (0001ms, 0825ms total)
T17DC 040:642 JLINK_ReadMemU32(0xE0001048, 0x0001 Items, ...) -- CPU_ReadMem(4 bytes @ 0xE0001048) - Data: 00 00 00 00  returns 0x01 (0002ms, 0827ms total)
T17DC 040:644 JLINK_ReadMemU32(0xE0001058, 0x0001 Items, ...) -- CPU_ReadMem(4 bytes @ 0xE0001058) - Data: 00 00 00 00  returns 0x01 (0000ms, 0827ms total)
T17DC 040:644 JLINK_ReadReg(R0)  returns 0x00000000 (0001ms, 0828ms total)
T17DC 040:645 JLINK_ReadReg(R1)  returns 0x00000010 (0000ms, 0828ms total)
T17DC 040:645 JLINK_ReadReg(R2)  returns 0x00000000 (0000ms, 0828ms total)
T17DC 040:645 JLINK_ReadReg(R3)  returns 0x40010800 (0000ms, 0828ms total)
T17DC 040:645 JLINK_ReadReg(R4)  returns 0x001740C8 (0000ms, 0828ms total)
T17DC 040:645 JLINK_ReadReg(R5)  returns 0x20000B9C (0000ms, 0828ms total)
T17DC 040:645 JLINK_ReadReg(R6)  returns 0x00000000 (0000ms, 0828ms total)
T17DC 040:645 JLINK_ReadReg(R7)  returns 0x0000030D (0000ms, 0828ms total)
T17DC 040:645 JLINK_ReadReg(R8)  returns 0x20000BD0 (0000ms, 0828ms total)
T17DC 040:645 JLINK_ReadReg(R9)  returns 0xB5F790BC (0000ms, 0828ms total)
T17DC 040:645 JLINK_ReadReg(R10)  returns 0x4FCA6B26 (0000ms, 0828ms total)
T17DC 040:645 JLINK_ReadReg(R11)  returns 0xA0931EDE (0000ms, 0828ms total)
T17DC 040:645 JLINK_ReadReg(R12)  returns 0x080043C3 (0000ms, 0828ms total)
T17DC 040:645 JLINK_ReadReg(R13 (SP))  returns 0x20004600 (0000ms, 0828ms total)
T17DC 040:645 JLINK_ReadReg(R14)  returns 0x08006A53 (0000ms, 0828ms total)
T17DC 040:645 JLINK_ReadReg(R15 (PC))  returns 0x0800AEF0 (0000ms, 0828ms total)
T17DC 040:645 JLINK_ReadReg(XPSR)  returns 0x61000000 (0000ms, 0828ms total)
T17DC 040:645 JLINK_ReadReg(MSP)  returns 0x20004600 (0000ms, 0828ms total)
T17DC 040:645 JLINK_ReadReg(PSP)  returns 0x166A3C64 (0000ms, 0828ms total)
T17DC 040:645 JLINK_ReadReg(CFBP)  returns 0x00000000 (0000ms, 0828ms total)
T17DC 040:645 JLINK_ReadReg(FPSCR)  returns 0x00000000 (0006ms, 0834ms total)
T17DC 040:651 JLINK_ReadReg(FPS0)  returns 0x441DBE18 (0000ms, 0834ms total)
T17DC 040:651 JLINK_ReadReg(FPS1)  returns 0xB576103B (0000ms, 0834ms total)
T17DC 040:651 JLINK_ReadReg(FPS2)  returns 0x33336E19 (0000ms, 0834ms total)
T17DC 040:651 JLINK_ReadReg(FPS3)  returns 0x9F8DA638 (0000ms, 0834ms total)
T17DC 040:651 JLINK_ReadReg(FPS4)  returns 0x7E3B74EF (0000ms, 0834ms total)
T17DC 040:651 JLINK_ReadReg(FPS5)  returns 0xC9B3B8BD (0000ms, 0834ms total)
T17DC 040:651 JLINK_ReadReg(FPS6)  returns 0x860516FD (0000ms, 0834ms total)
T17DC 040:651 JLINK_ReadReg(FPS7)  returns 0xB4FF6D32 (0000ms, 0834ms total)
T17DC 040:651 JLINK_ReadReg(FPS8)  returns 0xCED26F8E (0000ms, 0834ms total)
T17DC 040:651 JLINK_ReadReg(FPS9)  returns 0xEC9D9CFD (0000ms, 0834ms total)
T17DC 040:651 JLINK_ReadReg(FPS10)  returns 0x8FDE17DE (0000ms, 0834ms total)
T17DC 040:651 JLINK_ReadReg(FPS11)  returns 0xD44E74FD (0000ms, 0834ms total)
T17DC 040:651 JLINK_ReadReg(FPS12)  returns 0x0AF9D4DF (0000ms, 0834ms total)
T17DC 040:651 JLINK_ReadReg(FPS13)  returns 0xBD2582A4 (0000ms, 0834ms total)
T17DC 040:651 JLINK_ReadReg(FPS14)  returns 0xDB579EE2 (0000ms, 0834ms total)
T17DC 040:651 JLINK_ReadReg(FPS15)  returns 0x71633524 (0000ms, 0834ms total)
T17DC 040:651 JLINK_ReadReg(FPS16)  returns 0xCE1A88D6 (0000ms, 0834ms total)
T17DC 040:651 JLINK_ReadReg(FPS17)  returns 0x48FBC82F (0000ms, 0834ms total)
T17DC 040:651 JLINK_ReadReg(FPS18)  returns 0x2F8F13CE (0000ms, 0834ms total)
T17DC 040:651 JLINK_ReadReg(FPS19)  returns 0xAA2B3A70 (0000ms, 0834ms total)
T17DC 040:651 JLINK_ReadReg(FPS20)  returns 0x6D30F358 (0000ms, 0834ms total)
T17DC 040:651 JLINK_ReadReg(FPS21)  returns 0xCA9BB744 (0000ms, 0834ms total)
T17DC 040:651 JLINK_ReadReg(FPS22)  returns 0x09BF51FB (0000ms, 0834ms total)
T17DC 040:651 JLINK_ReadReg(FPS23)  returns 0x50D96899 (0000ms, 0834ms total)
T17DC 040:651 JLINK_ReadReg(FPS24)  returns 0x0FE63EDB (0000ms, 0834ms total)
T17DC 040:651 JLINK_ReadReg(FPS25)  returns 0x7668A672 (0000ms, 0834ms total)
T17DC 040:651 JLINK_ReadReg(FPS26)  returns 0x3FCDC75C (0000ms, 0834ms total)
T17DC 040:651 JLINK_ReadReg(FPS27)  returns 0x739936E7 (0000ms, 0834ms total)
T17DC 040:651 JLINK_ReadReg(FPS28)  returns 0xC0082AC7 (0000ms, 0834ms total)
T17DC 040:651 JLINK_ReadReg(FPS29)  returns 0xE6BCED00 (0000ms, 0834ms total)
T17DC 040:651 JLINK_ReadReg(FPS30)  returns 0x78381E09 (0000ms, 0834ms total)
T17DC 040:651 JLINK_ReadReg(FPS31)  returns 0x0FF68F24 (0000ms, 0834ms total)
T21CC 040:652 JLINK_ReadMem (0x20004600, 0x0020 Bytes, ...) -- CPU_ReadMem(64 bytes @ 0x20004600) -- Updating C cache (64 bytes @ 0x20004600) -- Read from C cache (32 bytes @ 0x20004600) - Data: 00 00 00 00 00 00 00 00 00 00 00 00 00 00 00 00 ...  returns 0x00 (0002ms, 0836ms total)
T17DC 041:271 JLINK_ReadMem (0x0800AEF0, 0x003C Bytes, ...) -- CPU_ReadMem(128 bytes @ 0x0800AEC0) -- Updating C cache (128 bytes @ 0x0800AEC0) -- Read from C cache (60 bytes @ 0x0800AEF0) - Data: 4F F4 80 71 68 46 F5 F7 9B F9 4F F4 80 73 6A 46 ...  returns 0x00 (0003ms, 0839ms total)
T17DC 041:274 JLINK_Step() -- Read from C cache (2 bytes @ 0x0800AEF0) -- CPU_ReadMem(4 bytes @ 0xE0001004) -- Read from C cache (2 bytes @ 0x0800AEF2) -- Simulated  returns 0x00 (0002ms, 0841ms total)
T17DC 041:276 JLINK_ReadReg(R15 (PC))  returns 0x0800AEF4 (0000ms, 0841ms total)
T17DC 041:276 JLINK_ReadReg(XPSR)  returns 0x61000000 (0000ms, 0841ms total)
T17DC 041:276 JLINK_Step() -- Read from C cache (2 bytes @ 0x0800AEF4) -- Simulated  returns 0x00 (0000ms, 0841ms total)
T17DC 041:276 JLINK_ReadReg(R15 (PC))  returns 0x0800AEF6 (0000ms, 0841ms total)
T17DC 041:276 JLINK_ReadReg(XPSR)  returns 0x61000000 (0000ms, 0841ms total)
T17DC 041:276 JLINK_SetBPEx(Addr = 0x0800AEFA, Type = 0xFFFFFFF2)  returns 0x00000005 (0000ms, 0841ms total)
T17DC 041:276 JLINK_SetBPEx(Addr = 0x0800AEE8, Type = 0xFFFFFFF2)  returns 0x00000006 (0000ms, 0841ms total)
T17DC 041:276 JLINK_Go() -- CPU_WriteMem(4 bytes @ 0xE0002000) -- CPU_WriteMem(4 bytes @ 0xE0002000) -- CPU_ReadMem(4 bytes @ 0xE0001000) -- CPU_WriteMem(4 bytes @ 0xE0002008) -- CPU_WriteMem(4 bytes @ 0xE0001004) (0006ms, 0847ms total)
T17DC 041:382 JLINK_IsHalted()  returns TRUE (0005ms, 0852ms total)
T17DC 041:387 JLINK_Halt()  returns 0x00 (0000ms, 0847ms total)
T17DC 041:387 JLINK_IsHalted()  returns TRUE (0000ms, 0847ms total)
T17DC 041:387 JLINK_IsHalted()  returns TRUE (0000ms, 0847ms total)
T17DC 041:387 JLINK_IsHalted()  returns TRUE (0000ms, 0847ms total)
T17DC 041:387 JLINK_ReadReg(R15 (PC))  returns 0x0800AEFA (0000ms, 0847ms total)
T17DC 041:387 JLINK_ReadReg(XPSR)  returns 0x81000000 (0000ms, 0847ms total)
T17DC 041:387 JLINK_ClrBPEx(BPHandle = 0x00000005)  returns 0x00 (0000ms, 0847ms total)
T17DC 041:387 JLINK_ClrBPEx(BPHandle = 0x00000006)  returns 0x00 (0000ms, 0847ms total)
T17DC 041:387 JLINK_ReadMemU32(0xE000ED30, 0x0001 Items, ...) -- CPU_ReadMem(4 bytes @ 0xE000ED30) - Data: 03 00 00 00  returns 0x01 (0001ms, 0848ms total)
T17DC 041:388 JLINK_ReadMemU32(0xE0001028, 0x0001 Items, ...) -- CPU_ReadMem(4 bytes @ 0xE0001028) - Data: 00 00 00 00  returns 0x01 (0001ms, 0849ms total)
T17DC 041:389 JLINK_ReadMemU32(0xE0001038, 0x0001 Items, ...) -- CPU_ReadMem(4 bytes @ 0xE0001038) - Data: 00 02 00 00  returns 0x01 (0000ms, 0849ms total)
T17DC 041:389 JLINK_ReadMemU32(0xE0001048, 0x0001 Items, ...) -- CPU_ReadMem(4 bytes @ 0xE0001048) - Data: 00 00 00 00  returns 0x01 (0001ms, 0850ms total)
T17DC 041:390 JLINK_ReadMemU32(0xE0001058, 0x0001 Items, ...) -- CPU_ReadMem(4 bytes @ 0xE0001058) - Data: 00 00 00 00  returns 0x01 (0002ms, 0852ms total)
T17DC 041:392 JLINK_ReadReg(R0)  returns 0x20004700 (0000ms, 0852ms total)
T17DC 041:392 JLINK_ReadReg(R1)  returns 0xFFFFFFFF (0000ms, 0852ms total)
T17DC 041:392 JLINK_ReadReg(R2)  returns 0x00000000 (0000ms, 0852ms total)
T17DC 041:392 JLINK_ReadReg(R3)  returns 0x40010800 (0000ms, 0852ms total)
T17DC 041:392 JLINK_ReadReg(R4)  returns 0x001740C8 (0000ms, 0852ms total)
T17DC 041:392 JLINK_ReadReg(R5)  returns 0x20000B9C (0000ms, 0852ms total)
T17DC 041:392 JLINK_ReadReg(R6)  returns 0x00000000 (0000ms, 0852ms total)
T17DC 041:392 JLINK_ReadReg(R7)  returns 0x0000030D (0000ms, 0852ms total)
T17DC 041:392 JLINK_ReadReg(R8)  returns 0x20000BD0 (0000ms, 0852ms total)
T17DC 041:392 JLINK_ReadReg(R9)  returns 0xB5F790BC (0000ms, 0852ms total)
T17DC 041:392 JLINK_ReadReg(R10)  returns 0x4FCA6B26 (0000ms, 0852ms total)
T17DC 041:392 JLINK_ReadReg(R11)  returns 0xA0931EDE (0000ms, 0852ms total)
T17DC 041:392 JLINK_ReadReg(R12)  returns 0x080043C3 (0000ms, 0852ms total)
T17DC 041:392 JLINK_ReadReg(R13 (SP))  returns 0x20004600 (0000ms, 0852ms total)
T17DC 041:392 JLINK_ReadReg(R14)  returns 0x0800AEFB (0000ms, 0852ms total)
T17DC 041:392 JLINK_ReadReg(R15 (PC))  returns 0x0800AEFA (0000ms, 0852ms total)
T17DC 041:392 JLINK_ReadReg(XPSR)  returns 0x81000000 (0000ms, 0852ms total)
T17DC 041:392 JLINK_ReadReg(MSP)  returns 0x20004600 (0000ms, 0852ms total)
T17DC 041:392 JLINK_ReadReg(PSP)  returns 0x166A3C64 (0000ms, 0852ms total)
T17DC 041:392 JLINK_ReadReg(CFBP)  returns 0x00000000 (0000ms, 0852ms total)
T17DC 041:392 JLINK_ReadReg(FPSCR)  returns 0x00000000 (0007ms, 0859ms total)
T17DC 041:399 JLINK_ReadReg(FPS0)  returns 0x441DBE18 (0000ms, 0859ms total)
T17DC 041:399 JLINK_ReadReg(FPS1)  returns 0xB576103B (0000ms, 0859ms total)
T17DC 041:399 JLINK_ReadReg(FPS2)  returns 0x33336E19 (0000ms, 0859ms total)
T17DC 041:399 JLINK_ReadReg(FPS3)  returns 0x9F8DA638 (0000ms, 0859ms total)
T17DC 041:399 JLINK_ReadReg(FPS4)  returns 0x7E3B74EF (0000ms, 0859ms total)
T17DC 041:399 JLINK_ReadReg(FPS5)  returns 0xC9B3B8BD (0000ms, 0859ms total)
T17DC 041:399 JLINK_ReadReg(FPS6)  returns 0x860516FD (0000ms, 0859ms total)
T17DC 041:399 JLINK_ReadReg(FPS7)  returns 0xB4FF6D32 (0000ms, 0859ms total)
T17DC 041:399 JLINK_ReadReg(FPS8)  returns 0xCED26F8E (0000ms, 0859ms total)
T17DC 041:399 JLINK_ReadReg(FPS9)  returns 0xEC9D9CFD (0000ms, 0859ms total)
T17DC 041:399 JLINK_ReadReg(FPS10)  returns 0x8FDE17DE (0000ms, 0859ms total)
T17DC 041:399 JLINK_ReadReg(FPS11)  returns 0xD44E74FD (0000ms, 0859ms total)
T17DC 041:399 JLINK_ReadReg(FPS12)  returns 0x0AF9D4DF (0000ms, 0859ms total)
T17DC 041:399 JLINK_ReadReg(FPS13)  returns 0xBD2582A4 (0000ms, 0859ms total)
T17DC 041:399 JLINK_ReadReg(FPS14)  returns 0xDB579EE2 (0000ms, 0859ms total)
T17DC 041:399 JLINK_ReadReg(FPS15)  returns 0x71633524 (0000ms, 0859ms total)
T17DC 041:399 JLINK_ReadReg(FPS16)  returns 0xCE1A88D6 (0000ms, 0859ms total)
T17DC 041:399 JLINK_ReadReg(FPS17)  returns 0x48FBC82F (0000ms, 0859ms total)
T17DC 041:399 JLINK_ReadReg(FPS18)  returns 0x2F8F13CE (0000ms, 0859ms total)
T17DC 041:399 JLINK_ReadReg(FPS19)  returns 0xAA2B3A70 (0000ms, 0859ms total)
T17DC 041:399 JLINK_ReadReg(FPS20)  returns 0x6D30F358 (0000ms, 0859ms total)
T17DC 041:399 JLINK_ReadReg(FPS21)  returns 0xCA9BB744 (0000ms, 0859ms total)
T17DC 041:399 JLINK_ReadReg(FPS22)  returns 0x09BF51FB (0000ms, 0859ms total)
T17DC 041:399 JLINK_ReadReg(FPS23)  returns 0x50D96899 (0000ms, 0859ms total)
T17DC 041:399 JLINK_ReadReg(FPS24)  returns 0x0FE63EDB (0000ms, 0859ms total)
T17DC 041:399 JLINK_ReadReg(FPS25)  returns 0x7668A672 (0000ms, 0859ms total)
T17DC 041:399 JLINK_ReadReg(FPS26)  returns 0x3FCDC75C (0000ms, 0859ms total)
T17DC 041:399 JLINK_ReadReg(FPS27)  returns 0x739936E7 (0000ms, 0859ms total)
T17DC 041:399 JLINK_ReadReg(FPS28)  returns 0xC0082AC7 (0000ms, 0859ms total)
T17DC 041:399 JLINK_ReadReg(FPS29)  returns 0xE6BCED00 (0000ms, 0859ms total)
T17DC 041:399 JLINK_ReadReg(FPS30)  returns 0x78381E09 (0000ms, 0859ms total)
T17DC 041:399 JLINK_ReadReg(FPS31)  returns 0x0FF68F24 (0000ms, 0859ms total)
T21CC 041:399 JLINK_ReadMem (0x20004600, 0x0020 Bytes, ...) -- CPU_ReadMem(64 bytes @ 0x20004600) -- Updating C cache (64 bytes @ 0x20004600) -- Read from C cache (32 bytes @ 0x20004600) - Data: 00 00 00 00 00 00 00 00 00 00 00 00 00 00 00 00 ...  returns 0x00 (0002ms, 0861ms total)
T17DC 042:320 JLINK_ReadMem (0x0800AEFA, 0x0002 Bytes, ...) -- CPU_ReadMem(64 bytes @ 0x0800AEC0) -- Updating C cache (64 bytes @ 0x0800AEC0) -- Read from C cache (2 bytes @ 0x0800AEFA) - Data: 4F F4  returns 0x00 (0002ms, 0863ms total)
T17DC 042:322 JLINK_ReadMem (0x0800AEFC, 0x003C Bytes, ...) -- CPU_ReadMem(64 bytes @ 0x0800AF00) -- Updating C cache (64 bytes @ 0x0800AF00) -- Read from C cache (60 bytes @ 0x0800AEFC) - Data: 80 73 6A 46 31 46 28 46 F9 F7 44 FF 00 24 04 E0 ...  returns 0x00 (0001ms, 0864ms total)
T17DC 042:323 JLINK_Step() -- Read from C cache (2 bytes @ 0x0800AEFA) -- CPU_ReadMem(4 bytes @ 0xE0001004) -- Read from C cache (2 bytes @ 0x0800AEFC) -- Simulated  returns 0x00 (0002ms, 0866ms total)
T17DC 042:325 JLINK_ReadReg(R15 (PC))  returns 0x0800AEFE (0000ms, 0866ms total)
T17DC 042:325 JLINK_ReadReg(XPSR)  returns 0x81000000 (0000ms, 0866ms total)
T17DC 042:325 JLINK_Step() -- Read from C cache (2 bytes @ 0x0800AEFE) -- Simulated  returns 0x00 (0000ms, 0866ms total)
T17DC 042:325 JLINK_ReadReg(R15 (PC))  returns 0x0800AF00 (0000ms, 0866ms total)
T17DC 042:325 JLINK_ReadReg(XPSR)  returns 0x81000000 (0000ms, 0866ms total)
T17DC 042:325 JLINK_Step() -- Read from C cache (2 bytes @ 0x0800AF00) -- Simulated  returns 0x00 (0000ms, 0866ms total)
T17DC 042:325 JLINK_ReadReg(R15 (PC))  returns 0x0800AF02 (0000ms, 0866ms total)
T17DC 042:325 JLINK_ReadReg(XPSR)  returns 0x81000000 (0000ms, 0866ms total)
T17DC 042:325 JLINK_Step() -- Read from C cache (2 bytes @ 0x0800AF02) -- Simulated  returns 0x00 (0000ms, 0866ms total)
T17DC 042:325 JLINK_ReadReg(R15 (PC))  returns 0x0800AF04 (0000ms, 0866ms total)
T17DC 042:325 JLINK_ReadReg(XPSR)  returns 0x81000000 (0000ms, 0866ms total)
T17DC 042:325 JLINK_SetBPEx(Addr = 0x0800AF08, Type = 0xFFFFFFF2)  returns 0x00000007 (0000ms, 0866ms total)
T17DC 042:325 JLINK_SetBPEx(Addr = 0x0800AEE8, Type = 0xFFFFFFF2)  returns 0x00000008 (0000ms, 0866ms total)
T17DC 042:325 JLINK_Go() -- CPU_WriteMem(4 bytes @ 0xE0002000) -- CPU_WriteMem(4 bytes @ 0xE0002000) -- CPU_ReadMem(4 bytes @ 0xE0001000) -- CPU_WriteMem(4 bytes @ 0xE0002008) -- CPU_WriteMem(4 bytes @ 0xE0001004) (0007ms, 0873ms total)
T17DC 042:432 JLINK_IsHalted()  returns TRUE (0004ms, 0877ms total)
T17DC 042:436 JLINK_Halt()  returns 0x00 (0000ms, 0873ms total)
T17DC 042:436 JLINK_IsHalted()  returns TRUE (0000ms, 0873ms total)
T17DC 042:436 JLINK_IsHalted()  returns TRUE (0000ms, 0873ms total)
T17DC 042:436 JLINK_IsHalted()  returns TRUE (0000ms, 0873ms total)
T17DC 042:436 JLINK_ReadReg(R15 (PC))  returns 0x0800AF08 (0000ms, 0873ms total)
T17DC 042:436 JLINK_ReadReg(XPSR)  returns 0x21000000 (0000ms, 0873ms total)
T17DC 042:436 JLINK_ClrBPEx(BPHandle = 0x00000007)  returns 0x00 (0000ms, 0873ms total)
T17DC 042:436 JLINK_ClrBPEx(BPHandle = 0x00000008)  returns 0x00 (0000ms, 0873ms total)
T17DC 042:436 JLINK_ReadMemU32(0xE000ED30, 0x0001 Items, ...) -- CPU_ReadMem(4 bytes @ 0xE000ED30) - Data: 03 00 00 00  returns 0x01 (0001ms, 0874ms total)
T17DC 042:437 JLINK_ReadMemU32(0xE0001028, 0x0001 Items, ...) -- CPU_ReadMem(4 bytes @ 0xE0001028) - Data: 00 00 00 00  returns 0x01 (0001ms, 0875ms total)
T17DC 042:438 JLINK_ReadMemU32(0xE0001038, 0x0001 Items, ...) -- CPU_ReadMem(4 bytes @ 0xE0001038) - Data: 00 02 00 00  returns 0x01 (0001ms, 0876ms total)
T17DC 042:439 JLINK_ReadMemU32(0xE0001048, 0x0001 Items, ...) -- CPU_ReadMem(4 bytes @ 0xE0001048) - Data: 00 00 00 00  returns 0x01 (0001ms, 0877ms total)
T17DC 042:440 JLINK_ReadMemU32(0xE0001058, 0x0001 Items, ...) -- CPU_ReadMem(4 bytes @ 0xE0001058) - Data: 00 00 00 00  returns 0x01 (0001ms, 0878ms total)
T17DC 042:441 JLINK_ReadReg(R0)  returns 0x40013000 (0000ms, 0878ms total)
T17DC 042:441 JLINK_ReadReg(R1)  returns 0x00000010 (0000ms, 0878ms total)
T17DC 042:441 JLINK_ReadReg(R2)  returns 0x00000000 (0000ms, 0878ms total)
T17DC 042:441 JLINK_ReadReg(R3)  returns 0x40010800 (0000ms, 0878ms total)
T17DC 042:441 JLINK_ReadReg(R4)  returns 0x001740C8 (0000ms, 0878ms total)
T17DC 042:441 JLINK_ReadReg(R5)  returns 0x20000B9C (0000ms, 0878ms total)
T17DC 042:441 JLINK_ReadReg(R6)  returns 0x00000000 (0000ms, 0878ms total)
T17DC 042:441 JLINK_ReadReg(R7)  returns 0x0000030D (0000ms, 0878ms total)
T17DC 042:441 JLINK_ReadReg(R8)  returns 0x20000BD0 (0000ms, 0878ms total)
T17DC 042:441 JLINK_ReadReg(R9)  returns 0xB5F790BC (0000ms, 0878ms total)
T17DC 042:441 JLINK_ReadReg(R10)  returns 0x4FCA6B26 (0000ms, 0878ms total)
T17DC 042:441 JLINK_ReadReg(R11)  returns 0xA0931EDE (0000ms, 0878ms total)
T17DC 042:441 JLINK_ReadReg(R12)  returns 0x080043C3 (0000ms, 0878ms total)
T17DC 042:441 JLINK_ReadReg(R13 (SP))  returns 0x20004600 (0000ms, 0878ms total)
T17DC 042:441 JLINK_ReadReg(R14)  returns 0x08006A53 (0000ms, 0878ms total)
T17DC 042:441 JLINK_ReadReg(R15 (PC))  returns 0x0800AF08 (0000ms, 0878ms total)
T17DC 042:441 JLINK_ReadReg(XPSR)  returns 0x21000000 (0000ms, 0878ms total)
T17DC 042:441 JLINK_ReadReg(MSP)  returns 0x20004600 (0000ms, 0878ms total)
T17DC 042:441 JLINK_ReadReg(PSP)  returns 0x166A3C64 (0000ms, 0878ms total)
T17DC 042:441 JLINK_ReadReg(CFBP)  returns 0x00000000 (0000ms, 0878ms total)
T17DC 042:441 JLINK_ReadReg(FPSCR)  returns 0x00000000 (0007ms, 0885ms total)
T17DC 042:448 JLINK_ReadReg(FPS0)  returns 0x441DBE18 (0000ms, 0885ms total)
T17DC 042:448 JLINK_ReadReg(FPS1)  returns 0xB576103B (0000ms, 0885ms total)
T17DC 042:448 JLINK_ReadReg(FPS2)  returns 0x33336E19 (0000ms, 0885ms total)
T17DC 042:448 JLINK_ReadReg(FPS3)  returns 0x9F8DA638 (0000ms, 0885ms total)
T17DC 042:448 JLINK_ReadReg(FPS4)  returns 0x7E3B74EF (0000ms, 0885ms total)
T17DC 042:448 JLINK_ReadReg(FPS5)  returns 0xC9B3B8BD (0000ms, 0885ms total)
T17DC 042:448 JLINK_ReadReg(FPS6)  returns 0x860516FD (0000ms, 0885ms total)
T17DC 042:448 JLINK_ReadReg(FPS7)  returns 0xB4FF6D32 (0000ms, 0885ms total)
T17DC 042:448 JLINK_ReadReg(FPS8)  returns 0xCED26F8E (0000ms, 0885ms total)
